# GHZ S RI R 50
!symmetric inductor with centertap
!outer diameter (D)     = 99.737um
!conductor width (w)    = 3.714um
!conductor spacing (s)  = 1.8um
!number of windings (N) = 2
!polygonal edges (p)    = 8
! freq ReS11 ImS11 ReS12 ImS12 ReS13 ImS13
! ReS21 ImS21 ReS22 ImS22 ReS23 ImS23
! ReS31 ImS31 ReS32 ImS32 ReS33 ImS33
! 
0.001 -0.3172527907635343 4.555041541887128e-05 0.6632198493674153 -5.31951083210247e-06 0.6540329696188335 -4.362656990941627e-05
0.6632198493674153 -5.31951083210247e-06 -0.3263255554327986 6.923239972977946e-06 0.6631057222706008 -5.024470346198795e-06
0.6540329696188335 -4.362656990941627e-05 0.6631057222706008 -5.024470346198795e-06 -0.3171386598843289 4.525242092046078e-05

0.3978214285714286 -0.31667901856284786 0.016487744198482313 0.6629106974109731 -0.0015059646323371256 0.6531408296049469 -0.016927611087231176
0.6629106974109731 -0.0015059646323371256 -0.3257584324587506 0.0016277728766534993 0.6628937592261053 -0.0014633224159439628
0.6531408296049469 -0.016927611087231176 0.6628937592261053 -0.0014633224159439628 -0.31667715200489055 0.016507094518402488

0.7946428571428572 -0.3156167049907994 0.03278618114202825 0.6628306939123743 -0.0027967545989740494 0.651681640833344 -0.03289906074997495
0.6628306939123743 -0.0027967545989740494 -0.32560769793365296 0.0028664412045574794 0.6628328061640517 -0.0028095473888529454
0.651681640833344 -0.03289906074997495 0.6628328061640517 -0.0028095473888529454 -0.31559082187823684 0.03284716929561404

1.1914642857142859 -0.3139238135946746 0.04891180528277528 0.6627730914136327 -0.004114032396403983 0.6500333667343978 -0.04863389030004839
0.6627730914136327 -0.004114032396403983 -0.32549379701526837 0.0041497010365231235 0.6627647792135153 -0.004162063536555294
0.6500333667343978 -0.04863389030004839 0.6627647792135153 -0.004162063536555294 -0.3138650445048148 0.04899183657143902

1.5882857142857145 -0.31167072494755377 0.06482448603434166 0.6627084822958522 -0.005433783309134382 0.648019554701086 -0.06431228752355189
0.6627084822958522 -0.005433783309134382 -0.32536556393890614 0.005432674328020026 0.6626826759613211 -0.005503577597952808
0.648019554701086 -0.06431228752355189 0.6626826759613211 -0.005503577597952808 -0.311580203169725 0.06490827018754408

1.985107142857143 -0.3089154905349375 0.08051965834763664 0.6626350435712933 -0.006747702940751249 0.6455553943067339 -0.07992532330360635
0.6626350435712933 -0.006747702940751249 -0.3252214399176055 0.006700120570060419 0.6625906873865022 -0.0068295819159798765
0.6455553943067339 -0.07992532330360635 0.6625906873865022 -0.0068295819159798765 -0.30879875572313287 0.0805980112951099

2.381928571428572 -0.30569550066429685 0.09600668565456472 0.6625545557088836 -0.008052916806171179 0.6426133977763284 -0.09544203531308221
0.6625545557088836 -0.008052916806171179 -0.32506601606285046 0.00794722342025056 0.6624934764641955 -0.008139875936998303
0.6426133977763284 -0.09544203531308221 0.6624934764641955 -0.008139875936998303 -0.30555872328404154 0.09607548266920096

2.77875 -0.302030943958595 0.11129573072447929 0.6624692270642234 -0.00934882355667399 0.6391881396029633 -0.110833531330706
0.6624692270642234 -0.00934882355667399 -0.32490420529397773 0.009173601093030614 0.6623946636057658 -0.00943615813667964
0.6391881396029633 -0.110833531330706 0.6623946636057658 -0.00943615813667964 -0.30187906223518923 0.11135407057105606

3.175571428571429 -0.2979314129465096 0.1263919665488471 0.6623809511796288 -0.010635929465654781 0.6352831512651164 -0.12607485570313953
0.6623809511796288 -0.010635929465654781 -0.32473991810735103 0.010380966913120793 0.6622966064980489 -0.01072086004903805
0.6352831512651164 -0.12607485570313953 0.6622966064980489 -0.01072086004903805 -0.2977676761642156 0.12644055721238368

3.572392857142858 -0.29340148956529677 0.14129445970720855 0.6622911230632943 -0.011915264839494621 0.6309060103430283 -0.1411441640928091
0.6622911230632943 -0.011915264839494621 -0.32457582204238267 0.011571918801021264 0.6622005781077083 -0.011996495961903553
0.6309060103430283 -0.1411441640928091 0.6622005781077083 -0.011996495961903553 -0.2932276649081671 0.14133457409196182

3.969214285714286 -0.28844431597235143 0.15599711234661906 0.6622006493143303 -0.01318804834507753 0.6260663373267423 -0.15602187371179077
0.6622006493143303 -0.01318804834507753 -0.3244134728508605 0.012749255126697334 0.6621070565359735 -0.013265332755059173
0.6260663373267423 -0.15602187371179077 0.6621070565359735 -0.013265332755059173 -0.2882610784266686 0.15603003389452796

4.366035714285714 -0.2830635071515234 0.1704901308804896 0.6621100308052262 -0.014455493545202674 0.6207749211373521 -0.17069006408332021
0.6621100308052262 -0.014455493545202674 -0.3242535640804144 0.013915605315641677 0.6620160008848545 -0.014529261562541279
0.6207749211373521 -0.17069006408332021 0.6620160008848545 -0.014529261562541279 -0.2828708017807513 0.17051691030954186

4.762857142857143 -0.27726401092168107 0.1847613722038095 0.6620194633253065 -0.015718706700255047 0.6150433252950797 -0.18513208625254013
0.6620194633253065 -0.015718706700255047 -0.3240961829167841 0.015073258538656431 0.6619270673687104 -0.015789783459771084
0.6150433252950797 -0.18513208625254013 0.6619270673687104 -0.015789783459771084 -0.2770613280049721 0.18478275139397837

5.1596785714285724 -0.27105238832464384 0.19879738635288402 0.6619289307624336 -0.016978642678652872 0.6088837114302879 -0.19933231866261059
0.6619289307624336 -0.016978642678652872 -0.32394102610875586 0.016224111361355653 0.6618397603822509 -0.017048049787635966
0.6088837114302879 -0.19933231866261059 0.6618397603822509 -0.017048049787635966 -0.2708389536092528 0.19881380073522203

5.556500000000001 -0.26443680768342415 0.21258416419205872 0.6618382810124306 -0.01823609564591047 0.6023087619551586 -0.2132760230468848
0.6618382810124306 -0.01823609564591047 -0.3237875637734377 0.017369680454068226 0.6617535295688156 -0.01830492178408291
0.6023087619551586 -0.2132760230468848 0.6617535295688156 -0.01830492178408291 -0.26421170736298083 0.2125957761961179

5.95332142857143 -0.2574269136178188 0.22610765321457627 0.6617472830177352 -0.019491708626320214 0.5953316450406388 -0.22694926736240928
0.6617472830177352 -0.019491708626320214 -0.3236351547811 0.018511145897157466 0.6616678275508248 -0.019561031125976652
0.5953316450406388 -0.22694926736240928 0.6616678275508248 -0.019561031125976652 -0.2571891739225298 0.2261143938635175

6.350142857142858 -0.2500336526017978 0.23935410644984034 0.6616556670998596 -0.020745991762508187 0.5879659937965653 -0.24033889240033163
0.6616556670998596 -0.020745991762508187 -0.3234831231747476 0.019649404766390044 0.6615821412586306 -0.02081683331859474
0.5879659937965653 -0.24033889240033163 0.6615821412586306 -0.02081683331859474 -0.24978228942071246 0.23935571520940746

6.746964285714286 -0.24226909314409772 0.2523103160831024 0.661563151999207 -0.02199934323493155 0.5802258861024496 -0.2534325054907382
0.661563151999207 -0.02199934323493155 -0.3233308057531313 0.020785124133232302 0.6614960065953228 -0.02207265147469159
0.5802258861024496 -0.2534325054907382 0.6614960065953228 -0.02207265147469159 -0.24200314242516052 0.25230637544089496

7.143785714285715 -0.23414625647482057 0.2649637687708972 0.6614694620285329 -0.023252069571542966 0.5721258191931237 -0.2662184896539962
0.6614694620285329 -0.023252069571542966 -0.3231775795145731 0.021918788431268654 0.661409013150478 -0.023328710710544986
0.5721258191931237 -0.2662184896539962 0.661409013150478 -0.023328710710544986 -0.2338647925034334 0.26495373290141755

7.5406071428571435 -0.22567896295266088 0.27730274788247455 0.6613743372246825 -0.024504403803558977 0.5636806771361353 -0.2786860201867327
0.6613743372246825 -0.024504403803558977 -0.3230228756693811 0.023050739447524282 0.6613208033295621 -0.024585164455248804
0.5636806771361353 -0.2786860201867327 0.6613208033295621 -0.024585164455248804 -0.22538110906699815 0.2772859659125042

7.937428571428573 -0.21688169464949203 0.28931639946573395 0.6612775387364523 -0.025756520926330906 0.5549056913788941 -0.2908250833333835
0.6612775387364523 -0.025756520926330906 -0.32286618506800147 0.02418120891683162 0.6612310686156212 -0.025842114227213137
0.5549056913788941 -0.2908250833333835 0.6612310686156212 -0.025842114227213137 -0.21656662927065717 0.28929213421491773

8.33425 -0.20776947270561597 0.3009947730075535 0.6611788510905146 -0.02700855066198049 0.5458163954786703 -0.3026264936115507
0.6611788510905146 -0.02700855066198049 -0.32270705839291136 0.02531034448108782 0.6611395445863217 -0.027099624329161298
0.5458163954786703 -0.3026264936115507 0.6611395445863217 -0.027099624329161298 -0.20743643248171417 0.3009622160960157

8.731071428571429 -0.1983577475305215 0.3123288442754746 0.6610780824931546 -0.028260587776579638 0.5364285754607155 -0.3140819077104097
0.6610780824931546 -0.028260587776579638 -0.3225451033469004 0.026438230044652455 0.6610460056138209 -0.028357732682066206
0.5364285754607155 -0.3140819077104097 0.6610460056138209 -0.028357732682066206 -0.1980060287117804 0.31228712837889905

9.127892857142857 -0.18866229998223794 0.32331052506718705 0.6609750639589231 -0.029512700300506844 0.5267582172686585 -0.32518383381138
0.6609750639589231 -0.029512700300506844 -0.3223799802810312 0.027564901566122846 0.6609502597466128 -0.02961645876877997
0.5267582172686585 -0.32518383381138 0.6609502597466128 -0.02961645876877997 -0.18829125871695584 0.32325873395641613

9.524714285714287 -0.17869915192590913 0.3339326631059918 0.660869647791999 -0.03076493601150912 0.5168214526417279 -0.3359256358050108
0.660869647791999 -0.03076493601150912 -0.3222113971661051 0.028690359219452344 0.660852144016542 -0.03087580943462989
0.5168214526417279 -0.3359256358050108 0.660852144016542 -0.03087580943462989 -0.1783082039007755 0.3338698399722322

9.921535714285715 -0.16848448488265977 0.3441890342984799 0.6607617057601636 -0.032017327510312915 0.5066345045663764 -0.3463015322868303
0.6607617057601636 -0.032017327510312915 -0.32203910445258954 0.029814576710924134 0.6607515202661608 -0.032135783108704574
0.5066345045663764 -0.3463015322868303 0.6607515202661608 -0.032135783108704574 -0.168073104565587 0.34411418874997746

10.318357142857144 -0.15803456576413966 0.3540743289132007 0.6606511271742459 -0.03326989617318726 0.4962136332530409 -0.3563065904742721
0.6606511271742459 -0.03326989617318726 -0.3218628901306941 0.03093750839098336 0.6606482715096239 -0.03339637286571276
0.4962136332530409 -0.3563065904742721 0.6606482715096239 -0.03339637286571276 -0.15760228540554433 0.35398644293694037

10.715178571428572 -0.14736567892363184 0.3635841328152165 0.660537817000898 -0.0345226552176906 0.4855750834049268 -0.3659367153448576
0.660537817000898 -0.0345226552176906 -0.3216825751540921 0.032059094668049015 0.6605422987978258 -0.03465756863867481
0.4855750834049268 -0.3659367153448576 0.6605422987978258 -0.03465756863867481 -0.14691208740911432 0.36348216592533156

11.112 -0.13649406393853813 0.372714904616803 0.6604216940808254 -0.035775612073166235 0.47473503338383166 -0.3751886343863838
0.6604216940808254 -0.035775612073166235 -0.3214980092989902 0.033179266120618334 0.6604335185390294 -0.035919358810607566
0.47473503338383166 -0.3751886343863838 0.6604335185390294 -0.035919358810607566 -0.13601880554752777 0.3725977983565376

11.508821428571428 -0.12543585867729978 0.3814639494250398 0.6603026894888279 -0.037028770208857864 0.46370954674010695 -0.38405987839624683
0.6603026894888279 -0.037028770208857864 -0.32130906747523597 0.03429794661423202 0.6603218602197971 -0.03718173135252356
0.46370954674010695 -0.38405987839624683 0.6603218602197971 -0.03718173135252356 -0.1249386317790191 0.3813306313476157

11.905642857142857 -0.11420704730421094 0.3898293897480021 0.6601807450496462 -0.03828213054031496 0.452514526458317 -0.3925487587849068
0.6601807450496462 -0.03828213054031496 -0.3211156464747035 0.035415055658859274 0.6602072644716053 -0.03844467463028867
0.452514526458317 -0.3925487587849068 0.6602072644716053 -0.03844467463028867 -0.11368760300865599 0.38967877697059206

12.302464285714288 -0.10282341294631936 0.3978101340403517 0.6600558120100986 -0.03953569250863645 0.44116567217430364 -0.40065434183830023
0.6600558120100986 -0.03953569250863645 -0.32091766212558476 0.03653051018692782 0.660089681432595 -0.039708177970044
0.44116567217430364 -0.40065434183830023 0.660089681432595 -0.039708177970044 -0.10228155372003456 0.397641136442076

12.699285714285715 -0.09130049479463098 0.40540584331225604 0.6599278498602574 -0.0407894549062591 0.4296784405399569 -0.40837642038250305
0.6599278498602574 -0.0407894549062591 -0.32071504681374186 0.03764422588953226 0.6599690693594212 -0.040972232047868484
0.4296784405399569 -0.40837642038250305 0.6599690693594212 -0.040972232047868484 -0.09073607304679498 0.40521736642973294

13.096107142857145 -0.07965354944292968 0.412616896183416 0.659796825292361 -0.04204341650656476 0.4180680088463106 -0.41571548327553504
0.659796825292361 -0.04204341650656476 -0.32050774733025594 0.03875611821563629 0.6598453934500493 -0.04223682915178362
0.4180680088463106 -0.41571548327553504 0.6598453934500493 -0.04223682915178362 -0.07906646608512835 0.41240784384448226

13.492928571428573 -0.06789751628639473 0.41944435273093617 0.6596627112844156 -0.04329757654171429 0.40634924196108085 -0.42267268312868306
0.6596627112844156 -0.04329757654171429 -0.3202957230054367 0.039866103114113205 0.6597186248439663 -0.04350196335134243
0.40634924196108085 -0.42267268312868306 0.6597186248439663 -0.04350196335134243 -0.0672877192685728 0.4192136294575466

13.889750000000001 -0.05604698681231035 0.42588991745202787 0.6595254862951061 -0.04455193506310451 0.3945366625914727 -0.4292498026348577
0.6595254862951061 -0.04455193506310451 -0.3200789440923216 0.04097409757945725 0.6595887397713953 -0.04476763060063438
0.3945366625914727 -0.4292498026348577 0.6595887397713953 -0.04476763060063438 -0.05541446963725316 0.42563643065623435

14.286571428571431 -0.04411617761938236 0.43195590163791797 0.6593851335570988 -0.04580649321107391 0.3826444248454105 -0.4354492198554093
0.6593851335570988 -0.04580649321107391 -0.3198573903662388 0.04208002004754269 0.6594557188275921 -0.04603382879363896
0.3826444248454105 -0.4354492198554093 0.6594557188275921 -0.04603382879363896 -0.043460977838287285 0.431678563629585

14.683392857142858 -0.03211890700254316 0.4376451854324066 0.6592416404567392 -0.047061253414466486 0.3706862910330609 -0.4412738727902617
0.6592416404567392 -0.047061253414466486 -0.31963104991076957 0.04318379067681649 0.6593195463521829 -0.047300557785798225
0.3706862910330609 -0.4412738727902617 0.6593195463521829 -0.047300557785798225 -0.0314411046946006 0.437342915253463

15.080214285714288 -0.020068574938213013 0.4429611798265529 0.6590949979892495 -0.04831621953601098 0.35867561162460515 -0.44672722352960625
0.6590949979892495 -0.04831621953601098 -0.31939991806412327 0.044285331541953354 0.6591802098967832 -0.04856781939195956
0.35867561162460515 -0.44672722352960625 0.6591802098967832 -0.04856781939195956 -0.019368291177549457 0.44263290492376206

15.477035714285716 -0.00797814630188487 0.4479077888194809 0.6589452002797129 -0.04957139697587751 0.3466253082589501 -0.45181322225907294
0.6589452002797129 -0.04957139697587751 -0.31916399650336286 0.04538456676064245 0.6590376997669167 -0.04983561736810682
0.3466253082589501 -0.45181322225907294 0.6590376997669167 -0.04983561736810682 -0.0072555416156057095 0.44755244656567583

15.873857142857144 0.00413986285338841 0.45248937195420935 0.6587922441612601 -0.050826792742991955 0.3345478596808256 -0.456536271364488
0.6587922441612601 -0.050826792742991955 -0.3189232924470254 0.046481422569326136 0.6588920086265666 -0.051103957382280296
0.3345478596808256 -0.456536271364488 0.6588920086265666 -0.051103957382280296 0.004884590032029346 0.45210591102646536

16.270678571428572 0.016273396132175377 0.45671070741658304 0.6586361288029584 -0.05208241550154005 0.32245529046997967 -0.46090118985721445
0.6586361288029584 -0.05208241550154005 -0.3186778179594281 0.04757582736001559 0.6587431311556233 -0.052372846978606336
0.32245529046997967 -0.46090118985721445 0.6587431311556233 -0.052372846978606336 0.01704001101119812 0.45629808903876645

16.6675 0.02841086492243028 0.46057695586495084 0.658476855380868 -0.0533382755984301 0.3103591624156062 -0.4649131783167593
0.658476855380868 -0.0533382755984301 -0.3184275893423616 0.048667711687481685 0.6585910637521012 -0.053642295537265045
0.3103591624156062 -0.4649131783167593 0.6585910637521012 -0.053642295537265045 0.02919909789474473 0.460134154921352

17.074 0.04083683434104979 0.4641750788862413 0.658310425731339 -0.054625025120473375 0.2979759092455335 -0.46866287427588965
0.658310425731339 -0.054625025120473375 -0.31816634904700014 0.04978354358134157 0.6584319775685665 -0.05494329752603119
0.2979759092455335 -0.46866287427588965 0.6584319775685665 -0.05494329752603119 0.041646898348231876 0.4637003116128242

17.480500000000003 0.0532438416723765 0.4674126242548875 0.6581406898184331 -0.05591205113623646 0.2856119701488562 -0.47205434177654604
0.6581406898184331 -0.05591205113623646 -0.317900165914527 0.05089658990948637 0.6582695407362508 -0.05624491172642654
0.2856119701488562 -0.47205434177654604 0.6582695407362508 -0.05624491172642654 0.054075384760823075 0.4669048469983853

17.887 0.06562098300224883 0.4702961599128863 0.6579676536772401 -0.05719937029962782 0.27327823285999053 -0.4750941941051885
0.6579676536772401 -0.05719937029962782 -0.317629068065518 0.05200678290777683 0.6581037534175488 -0.05754715393614929
0.27327823285999053 -0.4750941941051885 0.6581037534175488 -0.05754715393614929 0.06647362075764018 0.46975434655666537

18.2935 0.07795787929914133 0.4728325249702572 0.6577913244565167 -0.05848700111156696 0.26098506323653337 -0.4777893178121302
0.6577913244565167 -0.05848700111156696 -0.31735308631066994 0.05311405702813493 0.657934616706905 -0.05885004178728176
0.26098506323653337 -0.4777893178121302 0.657934616706905 -0.05885004178728176 0.07883119647986603 0.47225566765259464

18.700000000000003 0.09024467318957863 0.47502879519100905 0.657611710212409 -0.05977496390005954 0.24874230786377038 -0.48014683861544316
0.657611710212409 -0.05977496390005954 -0.31707225378976656 0.05421834886845439 0.6577621324556973 -0.06015359470162224
0.24874230786377038 -0.48014683861544316 0.6577621324556973 -0.06015359470162224 0.09113822533157179 0.4744159049106451

19.1065 0.10247202383436349 0.47689225003429847 0.6574288197238324 -0.0610632807964942 0.2365592985828346 -0.48217408874932066
0.6574288197238324 -0.0610632807964942 -0.3167866056522253 0.055319597096635365 0.6575863031169054 -0.06145783384811543
0.2365592985828346 -0.48217408874932066 0.6575863031169054 -0.06145783384811543 0.10338533882312317 0.47624235714943053

19.513 0.11463110009959965 0.47843034130176254 0.6572426623267851 -0.06235197570931614 0.2244448587547621 -0.4838785758229651
0.6572426623267851 -0.06235197570931614 -0.31649617877374014 0.05641774237042374 0.6574071316067579 -0.06276278210256347
0.2244448587547621 -0.4838785758229651 0.6574071316067579 -0.06276278210256347 0.11556367970546333 0.4777424959285814

19.919500000000003 0.12671357220945845 0.47965066342550977 0.6570532477652584 -0.06364107429596966 0.21240731107803446 -0.4852679532380635
0.6570532477652584 -0.06364107429596966 -0.31620101150434615 0.057512727254329044 0.6572246211809947 -0.06406846400970168
0.21240731107803446 -0.4852679532380635 0.6572246211809947 -0.06406846400970168 0.12766489358261457 0.47892393574234604

