# GHZ S RI R 50
! symmetric planar interleaved trafo
! outer diameter (D)          = 199.483um
! conductor width (w)         = 3.368um
! conductor spacing (s)       = 1.8um
! primary side windings (N)   = 2
! secondary side windings (M) = 1
! polygonal edges (p)         = 8
! freq ReS11 ImS11 ReS12 ImS12 ReS13 ImS13 ReS14 ImS14
! ReS21 ImS21 ReS22 ImS22 ReS23 ImS23 ReS24 ImS24
! ReS31 ImS31 ReS32 ImS32 ReS33 ImS33 ReS34 ImS34
! ReS41 ImS41 ReS42 ImS42 ReS43 ImS43 ReS44 ImS44
! 
1.0 0.04394249733597311 0.07687155358541475 0.9547063966262259 -0.11513489769797025 -0.005113758259898049 -0.024464447745640466 0.006335855600244508 0.05549689499367645
0.9547063966262259 -0.11513489769797025 0.04394638252956662 0.07686553756574965 0.00633042092807401 0.05550112811501835 -0.005119319973095627 -0.024462637516367843
-0.005113758259898049 -0.024464447745640466 0.00633042092807401 0.05550112811501835 0.02022029338838095 0.015652333420709846 0.97858919631244 -0.050425143040863915
0.006335855600244508 0.05549689499367645 -0.005119319973095627 -0.024462637516367843 0.97858919631244 -0.050425143040863915 0.020225634612463062 0.015654253521528966

1.392857142857143 0.05449739918475016 0.10470491765327328 0.942942091715054 -0.15815198765513613 -0.009556738054628637 -0.03304910903408369 0.011921210053633741 0.07637493095754112
0.942942091715054 -0.15815198765513613 0.054498359308570166 0.10469719229199317 0.011901200544361182 0.07638777701962222 -0.009567766076256775 -0.03304967155094286
-0.009556738054628637 -0.03304910903408369 0.011901200544361182 0.07638777701962222 0.022848663113037668 0.020797689519167245 0.9748401375032648 -0.06949964187774374
0.011921210053633741 0.07637493095754112 -0.009567766076256775 -0.03304967155094286 0.9748401375032648 -0.06949964187774374 0.02283297550277943 0.02104497815780121

1.785714285714286 0.06769737553271038 0.13070130376557346 0.9280844412822844 -0.19944017672985426 -0.015134593235889162 -0.04082428229089951 0.019038034846085215 0.09654293175244939
0.9280844412822844 -0.19944017672985426 0.06769538819329934 0.13069451212096753 0.019004113801982993 0.09657185353086001 -0.015154759593823406 -0.040824153810529375
-0.015134593235889162 -0.04082428229089951 0.019004113801982993 0.09657185353086001 0.025922572291087107 0.025383397084664944 0.9701677344021062 -0.08803929056154532
0.019038034846085215 0.09654293175244939 -0.015154759593823406 -0.040824153810529375 0.9701677344021062 -0.08803929056154532 0.026025019634499234 0.025816633326549737

2.1785714285714284 0.08320443532228372 0.1546839324678028 0.9104595159266045 -0.2388396585766554 -0.021714040280043527 -0.04768046005785272 0.027570673895425057 0.11591861801635359
0.9104595159266045 -0.2388396585766554 0.08320159850657294 0.15468018052706914 0.027527196766506088 0.11596844660459442 -0.021744648495290123 -0.047675882572703075
-0.021714040280043527 -0.04768046005785272 0.027527196766506088 0.11596844660459442 0.029382373181651787 0.02940540701661709 0.964693055023536 -0.10604258268407568
0.027570673895425057 0.11591861801635359 -0.021744648495290123 -0.047675882572703075 0.964693055023536 -0.10604258268407568 0.029660102522409346 0.02991481296084486

2.571428571428572 0.10072130491077491 0.17649924479427087 0.8903501695041558 -0.2762220671604078 -0.029162563555168816 -0.05351301932126645 0.03740870643515276 0.13442469808527552
0.8903501695041558 -0.2762220671604078 0.10072085159379607 0.1764989893380341 0.03736098377678532 0.13449684070645282 -0.029203404111444068 -0.05350086340440509
-0.029162563555168816 -0.05351301932126645 0.03736098377678532 0.13449684070645282 0.03317193414421067 0.03282826649895232 0.9585022291375096 -0.12352405793642193
0.03740870643515276 0.13442469808527552 -0.029203404111444068 -0.05350086340440509 0.9585022291375096 -0.12352405793642193 0.033615818666638146 0.033313735250187604

2.9642857142857144 0.11995919182493797 0.1960060818873014 0.8680233394138797 -0.31147645006375246 -0.03733795483203679 -0.05822656629772557 0.04843705841563226 0.15199327401931792
0.8680233394138797 -0.31147645006375246 0.1199643777863284 0.19600801766983367 0.04838960050515724 0.15208652872709 -0.037388216457388414 -0.05820455859448544
-0.03733795483203679 -0.05822656629772557 0.04838960050515724 0.15208652872709 0.037222079985111914 0.03560713911243024 0.9516580164697214 -0.14049969838062837
0.04843705841563226 0.15199327401931792 -0.037388216457388414 -0.05820455859448544 0.9516580164697214 -0.14049969838062837 0.03778757362679201 0.03600126944616236

3.357142857142857 0.14062227701462116 0.2130833633594556 0.8437442645368964 -0.3445138413801816 -0.046086928187939614 -0.06174125629464623 0.06053523708951412 0.16857205395618946
0.8437442645368964 -0.3445138413801816 0.14063566024011842 0.21308483378006282 0.06049105234439943 0.16868372792354697 -0.0461457229631222 -0.0617077664250418
-0.046086928187939614 -0.06174125629464623 0.06049105234439943 0.16868372792354697 0.04145106198826777 0.03770115771763008 0.9442101672151109 -0.1569834937394295
0.06053523708951412 0.16857205395618946 -0.0461457229631222 -0.0617077664250418 0.9442101672151109 -0.1569834937394295 0.04208292300601576 0.037970705972043606

3.7500000000000004 0.16240560113499836 0.22763954497169442 0.8177785489312361 -0.37527491914234207 -0.055247969565569786 -0.06399672674473422 0.0735808467256761 0.1841280824907028
0.8177785489312361 -0.37527491914234207 0.16242872756664817 0.22763707368937577 0.07354135738887489 0.18425491448074843 -0.055314545978410734 -0.06395048520153408
-0.055247969565569786 -0.06399672674473422 0.07354135738887489 0.18425491448074843 0.04576884143427893 0.03907916215987681 0.9362012884103923 -0.1729888745117661
0.0735808467256761 0.1841280824907028 -0.055314545978410734 -0.06395048520153408 0.9362012884103923 -0.1729888745117661 0.04641602236510484 0.039217684989817564

4.142857142857143 0.18499957288701208 0.23961831968729083 0.7903876158051378 -0.40373479460104267 -0.06465532308779862 -0.06495346204058156 0.08745432567131198 0.1986488222761567
0.7903876158051378 -0.40373479460104267 0.18503293407375276 0.23960807440881102 0.08741956785234226 0.1987876279685738 -0.06472910620802699 -0.06489333232637398
-0.06465532308779862 -0.06495346204058156 0.08741956785234226 0.1987876279685738 0.05008111036986237 0.03972129418450562 0.9276689329091499 -0.1885311040919585
0.08745432567131198 0.1986488222761567 -0.06472910620802699 -0.06489333232637398 0.9276689329091499 -0.1885311040919585 0.05070374721632476 0.03973989958718288

4.5357142857142865 0.20809648677749004 0.249000138703439 0.7618218126368597 -0.42990397600264135 -0.0741427172695846 -0.06459233982315574 0.1020435419901723 0.21214131614058904
0.7618218126368597 -0.42990397600264135 0.20813962431363942 0.2489782723805793 0.10201247175945838 0.212289400169562 -0.07422326912796226 -0.06451716286985082
-0.0741427172695846 -0.06459233982315574 0.10201247175945838 0.212289400169562 0.05429217890073047 0.03961863341811564 0.9186454401433701 -0.20362902538651842
0.1020435419901723 0.21214131614058904 -0.07422326912796226 -0.06451716286985082 0.9186454401433701 -0.20362902538651842 0.054863481344881615 0.039537832158981545

4.928571428571429 0.23139668483917708 0.25580062110363533 0.7323135113215951 -0.4538262446899213 -0.08354630448205344 -0.06291307971002272 0.1172477464659906 0.22463011356028773
0.7323135113215951 -0.4538262446899213 0.23144835808306607 0.25576349304205437 0.11721856748299642 0.22478550786817802 -0.08363325374861491 -0.06282157809591774
-0.08354630448205344 -0.06291307971002272 0.11721856748299642 0.22478550786817802 0.05830673049305912 0.03877201856437068 0.9091567228576996 -0.2183057929394981
0.1172477464659906 0.22463011356028773 -0.08363325374861491 -0.06282157809591774 0.9091567228576996 -0.2183057929394981 0.05881203875423306 0.038615608714745286

5.321428571428572 0.25461336011718316 0.26006705485356213 0.7020712547242596 -0.47557446823505445 -0.09270666531850179 -0.05993213583846654 0.13298075448926652 0.23615445406233515
0.7020712547242596 -0.47557446823505445 0.25467172775734803 0.26001135229910366 0.13295122875520374 0.23631603113776367 -0.09279962946772062 -0.05982286135394054
-0.09270666531850179 -0.05993213583846654 0.13295122875520374 0.23631603113776367 0.06203063187454463 0.037190647806241206 0.8992207086581334 -0.23258869953435501
0.13298075448926652 0.23615445406233515 -0.09279962946772062 -0.05982286135394054 0.8992207086581334 -0.23258869953435501 0.06246516664074975 0.036981633057386

5.714285714285714 0.27747570163615987 0.2618739682478336 0.671275291751971 -0.4952452204722724 -0.101469890002341 -0.05568042551538539 0.14917338501195693 0.2467650381500429
0.671275291751971 -0.4952452204722724 0.27753848941618586 0.2617967516651013 0.14914110969208622 0.24693253501894885 -0.1015683999619395 -0.05555173662699091
-0.101469890002341 -0.05568042551538539 0.14914110969208622 0.24693253501894885 0.06537099478365721 0.03489078084854216 0.8888457900448339 -0.24650831941016338
0.14917338501195693 0.2467650381500429 -0.1015683999619395 -0.05555173662699091 0.8888457900448339 -0.24650831941016338 0.06573722536850964 0.034648973221767465

6.107142857142858 0.29973041730355643 0.26131849586839073 0.6400744889176063 -0.5129528392024656 -0.1096878195713183 -0.05020118270499991 0.16577525081864575 0.2565205961174702
0.6400744889176063 -0.5129528392024656 0.29979505707794984 0.2612171889060796 0.16573789423090057 0.2566945755043691 -0.10979125047694012 -0.05005124222506829
-0.1096878195713183 -0.05020118270499991 0.16573789423090057 0.2566945755043691 0.0682356607218357 0.03189472887647363 0.8780294257627039 -0.26009716464925325
0.16577525081864575 0.2565205961174702 -0.10979125047694012 -0.05005124222506829 0.8780294257627039 -0.26009716464925325 0.06854080002046535 0.031635608281842864

6.5 0.3211418241015541 0.25851605553350165 0.6085844448440026 -0.5288233329811718 -0.11721756176431213 -0.043548154767343084 0.18275601897756208 0.26548437310379813
0.6085844448440026 -0.5288233329811718 0.3212055569145148 0.25838839743912756 0.18271151411886502 0.26566614162871155 -0.11732507039092457 -0.043374941098763
-0.11721756176431213 -0.043548154767343084 0.18271151411886502 0.26566614162871155 0.0705322507902011 0.028230249451297207 0.8667569258773316 -0.27338798638382583
0.18275601897756208 0.26548437310379813 -0.11732507039092457 -0.043374941098763 0.8667569258773316 -0.27338798638382583 0.07078611959671885 0.027964688240062485

6.892857142857144 0.34149075733142875 0.25359669973050303 0.5768865757976471 -0.5429883685175436 -0.12392041121727132 -0.03578431375247925 0.20010626180174323 0.2737205739573786
0.5768865757976471 -0.5429883685175436 0.3415506976439956 0.2534406749288489 0.20005295882064775 0.2739120725071553 -0.12403087918428385 -0.03558564137503647
-0.12392041121727132 -0.03578431375247925 0.20005295882064775 0.2739120725071553 0.07216689881713448 0.023930430559075483 0.855000403687384 -0.28641178441014853
0.20010626180174323 0.2737205739573786 -0.12403087918428385 -0.03558564137503647 0.855000403687384 -0.28641178441014853 0.07238024220140064 0.023664965509272107

7.2857142857142865 0.36057256960310535 0.2467023985593894 0.5450279397014974 -0.5555794268198169 -0.12966031095734365 -0.02698122427185727 0.21783800379175583 0.28129074774880325
0.5450279397014974 -0.5555794268198169 0.3606257303989241 0.24651615554822773 0.21777478464797073 0.28149442548487047 -0.1297722920980849 -0.026754770884793607
-0.12966031095734365 -0.02698122427185727 0.21777478464797073 0.28149442548487047 0.0730427702256855 0.01903413771224613 0.8427178648113094 -0.29919552771133356
0.21783800379175583 0.28129074774880325 -0.1297722920980849 -0.026754770884793607 0.8427178648113094 -0.29919552771133356 0.0732260189196893 0.01877155107062467

7.678571428571429 0.37819449128914717 0.23798544243102246 0.51302160068594 -0.5667221023376569 -0.1343019993067441 -0.017219195682909152 0.23598504112037638 0.28825003584378234
0.51302160068594 -0.5667221023376569 0.37823777125697156 0.2377672121401685 0.2359114006986882 0.28846871626620213 -0.13441366929450738 -0.016962534828786506
-0.1343019993067441 -0.017219195682909152 0.2359114006986882 0.28846871626620213 0.07305846391518342 0.013587102993959821 0.829852414601636 -0.31175953523668454
0.23598504112037638 0.28825003584378234 -0.13441366929450738 -0.016962534828786506 0.829852414601636 -0.31175953523668454 0.07322088844038588 0.013327144521745216

8.071428571428573 0.39417262357837923 0.22760811415529209 0.4808473956583363 -0.5765304287792241 -0.13770899970206915 -0.006588344886806658 0.25460306703311786 0.29464315769245497
0.4808473956583363 -0.5765304287792241 0.3942027583181392 0.22735613649003517 0.2545191653781238 0.29487990259055796 -0.13781810598460298 -0.006298984107301897
-0.13770899970206915 -0.006588344886806658 0.2545191653781238 0.29487990259055796 0.07210640295757818 0.00764375066597861 0.8163315941795948 -0.3241144197066971
0.25460306703311786 0.29464315769245497 -0.13781810598460298 -0.006298984107301897 0.8163315941795948 -0.3241144197066971 0.07225559028416134 0.007383889678710204

8.464285714285715 0.40832884561817406 0.2157437645847312 0.44845304526299445 -0.585101043805154 -0.139741637644743 0.004809295330282446 0.2737695767011913 0.3004999646361947
0.44845304526299445 -0.585101043805154 0.40834232515022917 0.21545623106972817 0.27367626691635943 0.30075793955863656 -0.13984544790935396 0.00513386961082213
-0.139741637644743 0.004809295330282446 0.27367626691635943 0.30075793955863656 0.07007134632803959 0.00126987645953619 0.8020669026351945 -0.3362574562992233
0.2737695767011913 0.3004999646361947 -0.13984544790935396 0.00513386961082213 0.8020669026351945 -0.3362574562992233 0.07021292686152675 0.001006016404336868

8.857142857142858 0.4204879499081131 0.2025794256301146 0.4157556556149806 -0.5925069510136163 -0.14025531707999037 0.016856473366923887 0.29358344391749563 0.3058303557698064
0.4157556556149806 -0.5925069510136163 0.42048090495555623 0.20225444592888783 0.29348227971126095 0.30611269883640396 -0.1403505648645988 0.01721874189843329
-0.14025531707999037 0.016856473366923887 0.29348227971126095 0.30611269883640396 0.06682920380650263 -0.0054536779160002935 0.7869536317496639 -0.34816820389322184
0.29358344391749563 0.3058303557698064 -0.1403505648645988 0.01721874189843329 0.7869536317496639 -0.34816820389322184 0.06696676315381708 -0.005726558187947289

9.25 0.4304753865094062 0.1883200984111033 0.38264378992747755 -0.5987906043483597 -0.13909936724561217 0.029416060517062987 0.31416395256895185 0.3106183263208561
0.38264378992747755 -0.5987906043483597 0.4304434463645044 0.18795569905422857 0.3140571785048206 0.3109280207954199 -0.13918219398687984 0.029818404719095002
-0.13909936724561217 0.029416060517062987 0.3140571785048206 0.3109280207954199 0.06224641681964304 -0.012426194588441297 0.7708712362855559 -0.3598031836761495
0.31416395256895185 0.3106183263208561 -0.13918219398687984 0.029818404719095002 0.7708712362855559 -0.3598031836761495 0.06238153753026969 -0.012713486901634985

9.59375 0.437295346149159 0.17512429250479117 0.35322376566259944 -0.6033724842477972 -0.13659508409816343 0.04069853916053843 0.3329087265903723 0.31432532249394113
0.35322376566259944 -0.6033724842477972 0.43723751646682674 0.1747237466301985 0.3327994093308701 0.31466118028678985 -0.1366633651891968 0.041137761606457164
-0.13659508409816343 0.04069853916053843 0.3327994093308701 0.31466118028678985 0.057024748423813346 -0.018632516424793355 0.7558982463447166 -0.36970107304071054
0.3329087265903723 0.31432532249394113 -0.1366633651891968 0.041137761606457164 0.7558982463447166 -0.36970107304071054 0.05715755593045029 -0.01893677675993971

9.9375 0.4422013062386204 0.16143824553089223 0.3232765939781815 -0.6070722116548327 -0.13258420656864417 0.05211868878341128 0.35244780705550033 0.31752180312369394
0.3232765939781815 -0.6070722116548327 0.44211316765079056 0.1610000360596088 0.3523385965651411 0.31788563286159616 -0.13263401170425465 0.052596285389731316
-0.13258420656864417 0.05211868878341128 0.3523385965651411 0.31788563286159616 0.050567185282275995 -0.024827240281201396 0.7399818459129465 -0.3792605690486437
0.35244780705550033 0.31752180312369394 -0.13263401170425465 0.052596285389731316 0.7399818459129465 -0.3792605690486437 0.0506963130571547 -0.025152218706249452

10.28125 0.44507751293542364 0.1474589027690586 0.29268798342660424 -0.6098299915414582 -0.12695751457569446 0.0635217063800858 0.37288944713727784 0.32012031586278955
0.29268798342660424 -0.6098299915414582 0.4449539666781406 0.1469816289693446 0.3727833827683624 0.3205135918304318 -0.12698440124477636 0.06403890650241893
-0.12695751457569446 0.0635217063800858 0.3727833827683624 0.3205135918304318 0.04277105626289681 -0.030880424010775148 0.7230192531072939 -0.38838329524993953
0.37288944713727784 0.32012031586278955 -0.12698440124477636 0.06403890650241893 0.7230192531072939 -0.38838329524993953 0.04289412536337304 -0.03122936820388586

10.625 0.44581293184917425 0.13341268055487931 0.2613394428645815 -0.6115471502285571 -0.11960818097077576 0.07472275845729051 0.394343898339926 0.3219988332670707
0.2613394428645815 -0.6115471502285571 0.44564808458362337 0.13289518737206152 0.3942443675562478 0.3224226253430835 -0.11960716371072415 0.07528042837279862
-0.11960818097077576 0.07472275845729051 0.3942443675562478 0.3224226253430835 0.03353474301249549 -0.03663266873926435 0.7049068202505493 -0.3969392629475601
0.394343898339926 0.3219988332670707 -0.11960716371072415 0.07528042837279862 0.7049068202505493 -0.3969392629475601 0.0336485040262146 -0.03700816122498318

10.96875 0.444306614129487 0.11956169458941548 0.22911515239262198 -0.6120799965474895 -0.11043718421771262 0.08550110790135143 0.4169172614836846 0.3229949211466737
0.22911515239262198 -0.6120799965474895 0.4440936718375509 0.11900325035881418 0.41682794744183427 0.3234498259852611 -0.11040271341741233 0.08609963212412483
-0.11043718421771262 0.08550110790135143 0.41682794744183427 0.3234498259852611 0.022762987333420734 -0.04188954580076798 0.6855456643452253 -0.4047613422682441
0.4169172614836846 0.3229949211466737 -0.11040271341741233 0.08609963212412483 0.6855456643452253 -0.4047613422682441 0.022863474184485883 -0.04229336564917133

11.3125 0.4404759024402485 0.10621000375985523 0.19591151696651135 -0.6112337916120462 -0.0993613703849138 0.09559425226142602 0.44070276570512623 0.32289998033686035
0.19591151696651135 -0.6112337916120462 0.44020708663750474 0.10561053354789274 0.4406275816303604 0.3233860553074907 -0.09928732781281685 0.09623338973925001
-0.0993613703849138 0.09559425226142602 0.4406275816303604 0.3233860553074907 0.0103746872069688 -0.046416052523837875 0.6648497480133218 -0.41163978631836756
0.44070276570512623 0.32289998033686035 -0.09928732781281685 0.09623338973925001 0.6648497480133218 -0.41163978631836756 0.010457383371073237 -0.046849058406859045

11.65625 0.43426816057465645 0.09370904677539504 0.1616500950429125 -0.6087576193829969 -0.08632481373006122 0.10469284379053112 0.4657688225643733 0.3214543174115489
0.1616500950429125 -0.6087576193829969 0.4339346655332873 0.09306942674221685 0.46571183087896545 0.321971020051497 -0.08620453461489025 0.10537155739176843
-0.08632481373006122 0.10469284379053112 0.46571183087896545 0.321971020051497 -0.003686203443430798 -0.04993182105355984 0.642757027446724 -0.4173175254254032
0.4657688225643733 0.3214543174115489 -0.08620453461489025 0.10537155739176843 0.642757027446724 -0.4173175254254032 -0.0036261841123409796 -0.05039385497963633

12.0 0.42567662033278 0.0824609776553058 0.1262945071966943 -0.604341427779412 -0.07131404097034288 0.1124376088814694 0.49214328541409336 0.31834424997777694
0.1262945071966943 -0.604341427779412 0.4252686364117747 0.08178339140359489 0.4921086001731186 0.3188903871456444 -0.07114037537088415 0.11315386923177075
